
**** 01/05/16 19:01:28 ********* PSpice 9.2 (Mar 2000) ******** ID# 1 ********

 ** Profile: "SCHEMATIC1-phaseShift"  [ c:\users\amir\desktop\elec3\phaseshift\phaseshift-schematic1-phaseshift.sim ] 


 ****     CIRCUIT DESCRIPTION


******************************************************************************




** Creating circuit file "phaseshift-schematic1-phaseshift.sim.cir" 
** WARNING: THIS AUTOMATICALLY GENERATED FILE MAY BE OVERWRITTEN BY SUBSEQUENT SIMULATIONS

*Libraries: 
* Local Libraries :
* From [PSPICE NETLIST] section of C:\Program Files\Orcad\PSpice\PSpice.ini file:
.lib "nom.lib" 

*Analysis directives: 
.TRAN  0 20ms 0 10u 
.PROBE V(*) I(*) W(*) D(*) NOISE(*) 
.INC ".\phaseshift-SCHEMATIC1.net" 



**** INCLUDING phaseshift-SCHEMATIC1.net ****
* source PHASESHIFT
E_U1         N00323 0 VALUE {LIMIT(V(0,N00628)*1E6,-15V,+15V)}
R_R1         N00628 N00323  43k  
R_R2         N00406 N00628  1.5k  
R_R3         0 N00239  1.5k  
R_R4         0 N00281  1.5k  
C_C1         N00239 N00323  100n  
C_C2         N00281 N00239  100n  
C_C3         N00406 N00281  100n IC=1v 

**** RESUMING phaseshift-schematic1-phaseshift.sim.cir ****
.END

**** 01/05/16 19:01:28 ********* PSpice 9.2 (Mar 2000) ******** ID# 1 ********

 ** Profile: "SCHEMATIC1-phaseShift"  [ c:\users\amir\desktop\elec3\phaseshift\phaseshift-schematic1-phaseshift.sim ] 


 ****     INITIAL TRANSIENT SOLUTION       TEMPERATURE =   27.000 DEG C


******************************************************************************



 NODE   VOLTAGE     NODE   VOLTAGE     NODE   VOLTAGE     NODE   VOLTAGE


(N00239)    0.0000 (N00281)    -.5000 (N00323)  -14.3330 (N00406)     .5000     

(N00628) 14.33E-06 




    VOLTAGE SOURCE CURRENTS
    NAME         CURRENT


    TOTAL POWER DISSIPATION   0.00E+00  WATTS



          JOB CONCLUDED

          TOTAL JOB TIME             .09
