
**** 12/28/15 22:02:11 ********* PSpice 9.2 (Mar 2000) ******** ID# 1 ********

 ** Profile: "SCHEMATIC1-noiseGenerator"  [ C:\USERS\AMIR\DESKTOP\ELEC3\noiseGenerator\noisegenerator-SCHEMATIC1-noiseGenerator.sim ]


 ****     CIRCUIT DESCRIPTION


******************************************************************************




** Creating circuit file "noisegenerator-SCHEMATIC1-noiseGenerator.sim.cir" 
** WARNING: THIS AUTOMATICALLY GENERATED FILE MAY BE OVERWRITTEN BY SUBSEQUENT SIMULATIONS

*Libraries: 
* Local Libraries :
.LIB ".\noisegenerator.lib" 
* From [PSPICE NETLIST] section of C:\Program Files\Orcad\PSpice\PSpice.ini file:
.lib "nom.lib" 

*Analysis directives: 
.TRAN  0 10ms 0 
.PROBE V(*) I(*) W(*) D(*) NOISE(*) 
.INC ".\noisegenerator-SCHEMATIC1.net" 



**** INCLUDING noisegenerator-SCHEMATIC1.net ****
* source NOISEGENERATOR
Q_Q1         N03392 N01801 N03176 BC107A 
R_R5         N02250 N00299  220  
R_R3         N03392 N00299  100  
R_R4         0 N03176  100  
R_R1         N01801 N00299  1k  
R_R2         0 N01801  1k  
R_R6         0 N03490  100k  
C_C3         0 N03176  2.2u  
D_D1         0 N02250 Dbreak 
C_C2         N03392 N03490  2.2u  
V_V1         N00299 0 15Vdc
C_C1         N02250 N01801  2.2u  

**** RESUMING noisegenerator-SCHEMATIC1-noiseGenerator.sim.cir ****
.END

**** 12/28/15 22:02:11 ********* PSpice 9.2 (Mar 2000) ******** ID# 1 ********

 ** Profile: "SCHEMATIC1-noiseGenerator"  [ C:\USERS\AMIR\DESKTOP\ELEC3\noiseGenerator\noisegenerator-SCHEMATIC1-noiseGenerator.sim ]


 ****     Diode MODEL PARAMETERS


******************************************************************************




               Dbreak          
          IS   10.000000E-15 
          BV    5.1          
         IBV     .01         
          RS     .1          
         CJO  100.000000E-15 


**** 12/28/15 22:02:11 ********* PSpice 9.2 (Mar 2000) ******** ID# 1 ********

 ** Profile: "SCHEMATIC1-noiseGenerator"  [ C:\USERS\AMIR\DESKTOP\ELEC3\noiseGenerator\noisegenerator-SCHEMATIC1-noiseGenerator.sim ]


 ****     BJT MODEL PARAMETERS


******************************************************************************




               BC107A          
               NPN             
          IS    7.049000E-15 
          BF  375.5          
          NF    1            
         VAF  116.3          
         IKF    4.589        
         ISE    7.049000E-15 
          NE    1.281        
          BR    2.611        
          NR    1            
         IKR    5.313        
         ISC  121.700000E-12 
          NC    1.865        
          RC    1.464        
         CJE   11.500000E-12 
         VJE     .5          
         MJE     .2717       
         CJC    5.380000E-12 
         VJC     .6218       
         MJC     .329        
          TF  451.000000E-12 
         XTF   17.43         
         VTF   10            
         ITF    6.194        
          TR   10.000000E-09 
         XTB    1.5          
          CN    2.42         
           D     .87         


**** 12/28/15 22:02:11 ********* PSpice 9.2 (Mar 2000) ******** ID# 1 ********

 ** Profile: "SCHEMATIC1-noiseGenerator"  [ C:\USERS\AMIR\DESKTOP\ELEC3\noiseGenerator\noisegenerator-SCHEMATIC1-noiseGenerator.sim ]


 ****     INITIAL TRANSIENT SOLUTION       TEMPERATURE =   27.000 DEG C


******************************************************************************



 NODE   VOLTAGE     NODE   VOLTAGE     NODE   VOLTAGE     NODE   VOLTAGE


(N00299)   15.0000 (N01801)    7.3649 (N02250)    5.1433 (N03176)    6.5924     

(N03392)    8.4346 (N03490)    0.0000 




    VOLTAGE SOURCE CURRENTS
    NAME         CURRENT

    V_V1        -1.181E-01

    TOTAL POWER DISSIPATION   1.77E+00  WATTS



          JOB CONCLUDED

          TOTAL JOB TIME             .03
