
**** 01/05/16 20:59:35 ********* PSpice 9.2 (Mar 2000) ******** ID# 1 ********

 ** Profile: "SCHEMATIC1-colpitts"  [ c:\users\amir\desktop\elec3\colpitts\colpitts-schematic1-colpitts.sim ] 


 ****     CIRCUIT DESCRIPTION


******************************************************************************




** Creating circuit file "colpitts-schematic1-colpitts.sim.cir" 
** WARNING: THIS AUTOMATICALLY GENERATED FILE MAY BE OVERWRITTEN BY SUBSEQUENT SIMULATIONS

*Libraries: 
* Local Libraries :
* From [PSPICE NETLIST] section of C:\Program Files\Orcad\PSpice\PSpice.ini file:
.lib "nom.lib" 

*Analysis directives: 
.TRAN  0 20.2ms 20ms 1u 
.PROBE V(*) I(*) W(*) D(*) NOISE(*) 
.INC ".\colpitts-SCHEMATIC1.net" 



**** INCLUDING colpitts-SCHEMATIC1.net ****
* source COLPITTS
Q_Q1         N00182 0 N00155 BC107A 
R_R1         N00636 N00155  1k  
C_C1         N00182 N00155  10u IC=1 
C_C2         N00155 N00284  10u  
L_L1         N00182 N00284  10uH  
V_V2         N00284 0 5Vdc
V_V3         0 N00636 5Vdc

**** RESUMING colpitts-schematic1-colpitts.sim.cir ****
.END

**** 01/05/16 20:59:35 ********* PSpice 9.2 (Mar 2000) ******** ID# 1 ********

 ** Profile: "SCHEMATIC1-colpitts"  [ c:\users\amir\desktop\elec3\colpitts\colpitts-schematic1-colpitts.sim ] 


 ****     BJT MODEL PARAMETERS


******************************************************************************




               BC107A          
               NPN             
          IS    7.049000E-15 
          BF  375.5          
          NF    1            
         VAF  116.3          
         IKF    4.589        
         ISE    7.049000E-15 
          NE    1.281        
          BR    2.611        
          NR    1            
         IKR    5.313        
         ISC  121.700000E-12 
          NC    1.865        
          RC    1.464        
         CJE   11.500000E-12 
         VJE     .5          
         MJE     .2717       
         CJC    5.380000E-12 
         VJC     .6218       
         MJC     .329        
          TF  451.000000E-12 
         XTF   17.43         
         VTF   10            
         ITF    6.194        
          TR   10.000000E-09 
         XTB    1.5          
          CN    2.42         
           D     .87         


**** 01/05/16 20:59:35 ********* PSpice 9.2 (Mar 2000) ******** ID# 1 ********

 ** Profile: "SCHEMATIC1-colpitts"  [ c:\users\amir\desktop\elec3\colpitts\colpitts-schematic1-colpitts.sim ] 


 ****     INITIAL TRANSIENT SOLUTION       TEMPERATURE =   27.000 DEG C


******************************************************************************



 NODE   VOLTAGE     NODE   VOLTAGE     NODE   VOLTAGE     NODE   VOLTAGE


(N00155)    4.0000 (N00182)    5.0000 (N00284)    5.0000 (N00636)   -5.0000 




    VOLTAGE SOURCE CURRENTS
    NAME         CURRENT

    V_V2        -9.000E-03
    V_V3        -9.000E-03

    TOTAL POWER DISSIPATION   9.00E-02  WATTS



          JOB CONCLUDED

          TOTAL JOB TIME             .41
